
T1D68 000:309 SEGGER J-Link V5.10h Log File (0001ms, 0267ms total)
T1D68 000:309 DLL Compiled: Jan 21 2016 19:24:29 (0001ms, 0267ms total)
T1D68 000:309 Logging started @ 2016-06-06 12:06 (0001ms, 0267ms total)
T1D68 000:310 JLINK_SetWarnOutHandler(...) (0000ms, 0267ms total)
T1D68 000:310 JLINK_OpenEx(...)
Firmware: J-Link OB-SAM3U128-V2-NordicSemi compiled Jan 21 2016 17:58:20
Hardware: V1.00
S/N: 681298660  returns O.K. (0279ms, 0546ms total)
T1D68 000:589 JLINK_SetErrorOutHandler(...) (0000ms, 0546ms total)
T1D68 000:589 JLINK_ExecCommand("ProjectFile = "C:\Users\Dave\Documents\GitHub\nrf51_repo\Scope_Firmware_ARM\app\pca10028\s130\arm5_no_packs\JLinkSettings.ini"", ...)  returns 0x00 (0002ms, 0548ms total)
T1D68 000:615 JLINK_ExecCommand("Device = nRF51422_xxAC", ...)Device "NRF51422_XXAC" selected.  returns 0x00 (0015ms, 0563ms total)
T1D68 000:630 JLINK_ExecCommand("DisableConnectionTimeout", ...)  returns 0x01 (0000ms, 0563ms total)
T1D68 000:630 JLINK_GetHardwareVersion()  returns 0x2710 (0000ms, 0563ms total)
T1D68 000:630 JLINK_GetDLLVersion()  returns 51008 (0000ms, 0563ms total)
T1D68 000:630 JLINK_GetFirmwareString(...) (0000ms, 0563ms total)
T1D68 000:640 JLINK_GetDLLVersion()  returns 51008 (0000ms, 0563ms total)
T1D68 000:640 JLINK_GetCompileDateTime() (0000ms, 0563ms total)
T1D68 000:642 JLINK_GetFirmwareString(...) (0001ms, 0564ms total)
T1D68 000:645 JLINK_GetHardwareVersion()  returns 0x2710 (0000ms, 0564ms total)
T1D68 000:653 JLINK_TIF_Select(JLINKARM_TIF_SWD)  returns 0x00 (0001ms, 0565ms total)
T1D68 000:654 JLINK_SetSpeed(5000) (0000ms, 0565ms total)
T1D68 000:654 JLINK_GetId() >0x108 TIF>Found SWD-DP with ID 0x0BB11477 >0x0D TIF> >0x28 TIF> >0x0D TIF> >0x28 TIF> >0x0D TIF> >0x28 TIF> >0x0D TIF> >0x28 TIF> >0x35 TIF> >0x0D TIF> >0x28 TIF> >0x0D TIF> >0x28 TIF> >0x35 TIF> >0x35 TIF> >0x35 TIF> >0x0D TIF> >0x28 TIF> >0x0D TIF> >0x28 TIF> >0x0D TIF> >0x28 TIF> >0x35 TIF> >0x35 TIF> >0x0D TIF> >0x28 TIF> >0x35 TIF> >0x35 TIF>Found Cortex-M0 r0p0, Little endian. -- CPU_ReadMem(4 bytes @ 0xE000EDF0) -- CPU_ReadMem(4 bytes @ 0xE0002000)
FPUnit: 4 code (BP) slots and 0 literal slots -- CPU_ReadMem(4 bytes @ 0xE000EDFC) -- CPU_ReadMem(4 bytes @ 0xE0001000) -- CPU_WriteMem(4 bytes @ 0xE0001000)CoreSight components:ROMTbl 0 @ F0000000 -- CPU_ReadMem(16 bytes @ 0xF0000000) -- CPU_ReadMem(16 bytes @ 0xE00FFFF0) -- CPU_ReadMem(16 bytes @ 0xE00FFFE0)ROMTbl 0 [0]: F00FF000, CID: B105100D, PID: 000BB471 ROM TableROMTbl 1 @ E00FF000 -- CPU_ReadMem(16 bytes @ 0xE00FF000) -- CPU_ReadMem(16 bytes @ 0xE000EFF0) -- CPU_ReadMem(16 bytes @ 0xE000EFE0)
ROMTbl 1 [0]: FFF0F000, CID: B105E00D, PID: 000BB008 SCS -- CPU_ReadMem(16 bytes @ 0xE0001FF0) -- CPU_ReadMem(16 bytes @ 0xE0001FE0)ROMTbl 1 [1]: FFF02000, CID: B105E00D, PID: 000BB00A DWT -- CPU_ReadMem(16 bytes @ 0xE0002FF0) -- CPU_ReadMem(16 bytes @ 0xE0002FE0)ROMTbl 1 [2]: FFF03000, CID: B105E00D, PID: 000BB00B FPB -- CPU_ReadMem(16 bytes @ 0xF0002FF0) -- CPU_ReadMem(16 bytes @ 0xF0002FE0)ROMTbl 0 [1]: 00002000, CID: B105900D, PID: 000BB9A3 ??? >0x35 TIF>  returns 0x0BB11477 (0100ms, 0665ms total)
T1D68 000:755 JLINK_GetDLLVersion()  returns 51008 (0000ms, 0665ms total)
T1D68 000:755 JLINK_CORE_GetFound()  returns 0x60000FF (0000ms, 0665ms total)
T1D68 000:755 JLINK_GetDebugInfo(0x100) -- Value=0xF0000000  returns 0x00 (0000ms, 0665ms total)
T1D68 000:770 JLINK_GetDebugInfo(0x100) -- Value=0xF0000000  returns 0x00 (0000ms, 0665ms total)
T1D68 000:770 JLINK_GetDebugInfo(0x101) -- Value=0x00000000  returns 0x00 (0000ms, 0665ms total)
T1D68 000:770 JLINK_ReadMem (0xE0041FF0, 0x0010 Bytes, ...) -- CPU is running -- CPU_ReadMem(16 bytes @ 0xE0041FF0) - Data: 00 00 00 00 00 00 00 00 00 00 00 00 00 00 00 00  returns 0x00 (0001ms, 0666ms total)
T1D68 000:771 JLINK_GetDebugInfo(0x102) -- Value=0x00000000  returns 0x00 (0000ms, 0666ms total)
T1D68 000:771 JLINK_GetDebugInfo(0x103) -- Value=0x00000000  returns 0x00 (0000ms, 0666ms total)
T1D68 000:771 JLINK_ReadMem (0xE0040FF0, 0x0010 Bytes, ...) -- CPU is running -- CPU_ReadMem(16 bytes @ 0xE0040FF0) - Data: 00 00 00 00 00 00 00 00 00 00 00 00 00 00 00 00  returns 0x00 (0001ms, 0667ms total)
T1D68 000:772 JLINK_GetDebugInfo(0x104) -- Value=0xE0000000  returns 0x00 (0000ms, 0667ms total)
T1D68 000:772 JLINK_GetDebugInfo(0x105) -- Value=0xE0001000  returns 0x00 (0000ms, 0667ms total)
T1D68 000:772 JLINK_GetDebugInfo(0x106) -- Value=0xE0002000  returns 0x00 (0000ms, 0667ms total)
T1D68 000:772 JLINK_GetDebugInfo(0x107) -- Value=0xE000E000  returns 0x00 (0000ms, 0667ms total)
T1D68 000:772 JLINK_GetDebugInfo(0x10C) -- Value=0xE000EDF0  returns 0x00 (0000ms, 0667ms total)
T1D68 000:772 JLINK_ReadMemU32(0xE000ED00, 0x0001 Items, ...) -- CPU is running -- CPU_ReadMem(4 bytes @ 0xE000ED00) - Data: 00 C2 0C 41  returns 0x01 (0001ms, 0668ms total)
T1D68 000:773 JLINK_SetResetType(JLINKARM_RESET_TYPE_NORMAL)  returns JLINKARM_RESET_TYPE_NORMAL (0000ms, 0668ms total)
T1D68 000:773 JLINK_Reset() -- CPU is running -- CPU_WriteMem(4 bytes @ 0xE000EDF0) -- CPU is running -- CPU_WriteMem(4 bytes @ 0xE000EDFC) >0x35 TIF> -- CPU is running -- CPU_WriteMem(4 bytes @ 0xE000ED0C) -- CPU is running -- CPU_ReadMem(4 bytes @ 0xE000EDF0) -- CPU is running -- CPU_ReadMem(4 bytes @ 0xE000EDF0) -- CPU is running -- CPU_WriteMem(4 bytes @ 0xE000EDF0) -- CPU is running -- CPU_WriteMem(4 bytes @ 0xE000EDFC) -- CPU is running -- CPU_ReadMem(4 bytes @ 0xE000EDF0)
 -- CPU_WriteMem(4 bytes @ 0xE0002000) -- CPU_ReadMem(4 bytes @ 0xE000EDFC) -- CPU_ReadMem(4 bytes @ 0xE0001000) -- CPU_WriteMem(4 bytes @ 0xE0001000) (0026ms, 0694ms total)
T1D68 000:799 JLINK_Halt()  returns 0x00 (0000ms, 0694ms total)
T1D68 000:799 JLINK_IsHalted()  returns TRUE (0000ms, 0694ms total)
T1D68 000:799 JLINK_ReadMemU32(0xE000EDF0, 0x0001 Items, ...) -- CPU_ReadMem(4 bytes @ 0xE000EDF0) - Data: 03 00 03 00  returns 0x01 (0001ms, 0695ms total)
T1D68 000:800 JLINK_WriteU32(0xE000EDF0, 0xA05F0003) -- CPU_WriteMem(4 bytes @ 0xE000EDF0)  returns 0x00 (0001ms, 0696ms total)
T1D68 000:801 JLINK_WriteU32(0xE000EDFC, 0x01000000) -- CPU_WriteMem(4 bytes @ 0xE000EDFC)  returns 0x00 (0000ms, 0696ms total)
T1D68 000:843 JLINK_GetHWStatus(...)  returns 0x00 (0000ms, 0696ms total)
T1D68 000:871 JLINK_GetNumBPUnits(Type = 0xFFFFFF00)  returns 0x04 (0000ms, 0696ms total)
T1D68 000:871 JLINK_GetNumBPUnits(Type = 0xF0)  returns 0x2000 (0000ms, 0696ms total)
T1D68 000:871 JLINK_GetNumWPUnits()  returns 0x02 (0000ms, 0696ms total)
T1D68 000:881 JLINK_GetSpeed()  returns 0x3E8 (0000ms, 0696ms total)
T1D68 000:887 JLINK_ReadMemU32(0xE000E004, 0x0001 Items, ...) -- CPU_ReadMem(4 bytes @ 0xE000E004) - Data: 00 00 00 00  returns 0x01 (0001ms, 0697ms total)
T1D68 000:888 JLINK_Halt()  returns 0x00 (0000ms, 0697ms total)
T1D68 000:888 JLINK_IsHalted()  returns TRUE (0000ms, 0697ms total)
T1D68 000:891 JLINK_WriteMem(0x20000000, 0x0478 Bytes, ...) - Data: 00 BE 0A E0 0D 78 2D 06 68 40 08 24 40 00 00 D3 ... -- CPU_WriteMem(1144 bytes @ 0x20000000)  returns 0x478 (0018ms, 0715ms total)
T1D68 000:909 JLINK_WriteReg(R0, 0x00000000)  returns 0x00 (0000ms, 0715ms total)
T1D68 000:909 JLINK_WriteReg(R1, 0x00F42400)  returns 0x00 (0000ms, 0715ms total)
T1D68 000:909 JLINK_WriteReg(R2, 0x00000001)  returns 0x00 (0000ms, 0715ms total)
T1D68 000:909 JLINK_WriteReg(R3, 0x00000000)  returns 0x00 (0000ms, 0715ms total)
T1D68 000:909 JLINK_WriteReg(R4, 0x00000000)  returns 0x00 (0000ms, 0715ms total)
T1D68 000:909 JLINK_WriteReg(R5, 0x00000000)  returns 0x00 (0000ms, 0715ms total)
T1D68 000:909 JLINK_WriteReg(R6, 0x00000000)  returns 0x00 (0000ms, 0715ms total)
T1D68 000:909 JLINK_WriteReg(R7, 0x00000000)  returns 0x00 (0000ms, 0715ms total)
T1D68 000:909 JLINK_WriteReg(R8, 0x00000000)  returns 0x00 (0000ms, 0715ms total)
T1D68 000:909 JLINK_WriteReg(R9, 0x20000474)  returns 0x00 (0000ms, 0715ms total)
T1D68 000:909 JLINK_WriteReg(R10, 0x00000000)  returns 0x00 (0000ms, 0715ms total)
T1D68 000:909 JLINK_WriteReg(R11, 0x00000000)  returns 0x00 (0000ms, 0715ms total)
T1D68 000:909 JLINK_WriteReg(R12, 0x00000000)  returns 0x00 (0000ms, 0715ms total)
T1D68 000:909 JLINK_WriteReg(R13 (SP), 0x20002000)  returns 0x00 (0000ms, 0715ms total)
T1D68 000:909 JLINK_WriteReg(R14, 0x20000001)  returns 0x00 (0000ms, 0715ms total)
T1D68 000:909 JLINK_WriteReg(R15 (PC), 0x20000028)  returns 0x00 (0000ms, 0715ms total)
T1D68 000:909 JLINK_WriteReg(XPSR, 0x01000000)  returns 0x00 (0000ms, 0715ms total)
T1D68 000:909 JLINK_WriteReg(MSP, 0x20002000)  returns 0x00 (0000ms, 0715ms total)
T1D68 000:909 JLINK_WriteReg(PSP, 0x20002000)  returns 0x00 (0000ms, 0715ms total)
T1D68 000:909 JLINK_WriteReg(CFBP, 0x00000000)  returns 0x00 (0000ms, 0715ms total)
T1D68 000:909 JLINK_SetBPEx(Addr = 0x20000000, Type = 0xFFFFFFF2) -- CPU_ReadMem(2 bytes @ 0x20000000)  returns 0x00000001 (0001ms, 0716ms total)
T1D68 000:910 JLINK_Go() -- CPU_WriteMem(2 bytes @ 0x20000000) -- CPU_ReadMem(4 bytes @ 0xE0001000) -- CPU_WriteMem(4 bytes @ 0xE0001000) -- CPU_WriteMem(4 bytes @ 0xE0002008) -- CPU_WriteMem(4 bytes @ 0xE000200C) -- CPU_WriteMem(4 bytes @ 0xE0002010) -- CPU_WriteMem(4 bytes @ 0xE0002014) -- CPU_WriteMem(4 bytes @ 0xE0001004) (0009ms, 0725ms total)
T1D68 000:919 JLINK_IsHalted() -- CPU_ReadMem(2 bytes @ 0x20000000)  returns TRUE (0007ms, 0732ms total)
T1D68 000:926 JLINK_ReadReg(R15 (PC))  returns 0x20000000 (0000ms, 0725ms total)
T1D68 000:926 JLINK_ClrBPEx(BPHandle = 0x00000001)  returns 0x00 (0000ms, 0725ms total)
T1D68 000:926 JLINK_ReadReg(R0)  returns 0x00000000 (0000ms, 0725ms total)
T1D68 000:927 JLINK_WriteReg(R0, 0x0001B000)  returns 0x00 (0000ms, 0725ms total)
T1D68 000:927 JLINK_WriteReg(R1, 0x00000400)  returns 0x00 (0000ms, 0725ms total)
T1D68 000:927 JLINK_WriteReg(R2, 0x000000FF)  returns 0x00 (0000ms, 0725ms total)
T1D68 000:927 JLINK_WriteReg(R3, 0x00000000)  returns 0x00 (0000ms, 0725ms total)
T1D68 000:927 JLINK_WriteReg(R4, 0x00000000)  returns 0x00 (0000ms, 0725ms total)
T1D68 000:927 JLINK_WriteReg(R5, 0x00000000)  returns 0x00 (0000ms, 0725ms total)
T1D68 000:927 JLINK_WriteReg(R6, 0x00000000)  returns 0x00 (0000ms, 0725ms total)
T1D68 000:927 JLINK_WriteReg(R7, 0x00000000)  returns 0x00 (0000ms, 0725ms total)
T1D68 000:927 JLINK_WriteReg(R8, 0x00000000)  returns 0x00 (0000ms, 0725ms total)
T1D68 000:927 JLINK_WriteReg(R9, 0x20000474)  returns 0x00 (0000ms, 0725ms total)
T1D68 000:927 JLINK_WriteReg(R10, 0x00000000)  returns 0x00 (0000ms, 0725ms total)
T1D68 000:927 JLINK_WriteReg(R11, 0x00000000)  returns 0x00 (0000ms, 0725ms total)
T1D68 000:927 JLINK_WriteReg(R12, 0x00000000)  returns 0x00 (0000ms, 0725ms total)
T1D68 000:927 JLINK_WriteReg(R13 (SP), 0x20002000)  returns 0x00 (0000ms, 0725ms total)
T1D68 000:927 JLINK_WriteReg(R14, 0x20000001)  returns 0x00 (0000ms, 0725ms total)
T1D68 000:927 JLINK_WriteReg(R15 (PC), 0x20000188)  returns 0x00 (0000ms, 0725ms total)
T1D68 000:927 JLINK_WriteReg(XPSR, 0x01000000)  returns 0x00 (0000ms, 0725ms total)
T1D68 000:927 JLINK_WriteReg(MSP, 0x20002000)  returns 0x00 (0000ms, 0725ms total)
T1D68 000:927 JLINK_WriteReg(PSP, 0x20002000)  returns 0x00 (0000ms, 0725ms total)
T1D68 000:927 JLINK_WriteReg(CFBP, 0x00000000)  returns 0x00 (0000ms, 0725ms total)
T1D68 000:927 JLINK_SetBPEx(Addr = 0x20000000, Type = 0xFFFFFFF2)  returns 0x00000002 (0000ms, 0725ms total)
T1D68 000:927 JLINK_Go() -- CPU_ReadMem(4 bytes @ 0xE0001000) -- CPU_WriteMem(4 bytes @ 0xE0001000) (0005ms, 0730ms total)
T1D68 000:932 JLINK_IsHalted() -- CPU_ReadMem(2 bytes @ 0x20000000)  returns TRUE (0006ms, 0736ms total)
T1D68 000:938 JLINK_ReadReg(R15 (PC))  returns 0x20000000 (0001ms, 0731ms total)
T1D68 000:939 JLINK_ClrBPEx(BPHandle = 0x00000002)  returns 0x00 (0000ms, 0731ms total)
T1D68 000:939 JLINK_ReadReg(R0)  returns 0x00000001 (0000ms, 0731ms total)
T1D68 000:939 JLINK_WriteReg(R0, 0x0001B000)  returns 0x00 (0000ms, 0731ms total)
T1D68 000:939 JLINK_WriteReg(R1, 0x00000400)  returns 0x00 (0000ms, 0731ms total)
T1D68 000:939 JLINK_WriteReg(R2, 0x000000FF)  returns 0x00 (0000ms, 0731ms total)
T1D68 000:939 JLINK_WriteReg(R3, 0x00000000)  returns 0x00 (0000ms, 0731ms total)
T1D68 000:939 JLINK_WriteReg(R4, 0x00000000)  returns 0x00 (0000ms, 0731ms total)
T1D68 000:939 JLINK_WriteReg(R5, 0x00000000)  returns 0x00 (0000ms, 0731ms total)
T1D68 000:939 JLINK_WriteReg(R6, 0x00000000)  returns 0x00 (0000ms, 0731ms total)
T1D68 000:939 JLINK_WriteReg(R7, 0x00000000)  returns 0x00 (0000ms, 0731ms total)
T1D68 000:939 JLINK_WriteReg(R8, 0x00000000)  returns 0x00 (0000ms, 0731ms total)
T1D68 000:939 JLINK_WriteReg(R9, 0x20000474)  returns 0x00 (0000ms, 0731ms total)
T1D68 000:939 JLINK_WriteReg(R10, 0x00000000)  returns 0x00 (0000ms, 0731ms total)
T1D68 000:939 JLINK_WriteReg(R11, 0x00000000)  returns 0x00 (0000ms, 0731ms total)
T1D68 000:939 JLINK_WriteReg(R12, 0x00000000)  returns 0x00 (0000ms, 0731ms total)
T1D68 000:939 JLINK_WriteReg(R13 (SP), 0x20002000)  returns 0x00 (0000ms, 0731ms total)
T1D68 000:939 JLINK_WriteReg(R14, 0x20000001)  returns 0x00 (0000ms, 0731ms total)
T1D68 000:939 JLINK_WriteReg(R15 (PC), 0x20000104)  returns 0x00 (0000ms, 0731ms total)
T1D68 000:939 JLINK_WriteReg(XPSR, 0x01000000)  returns 0x00 (0000ms, 0731ms total)
T1D68 000:939 JLINK_WriteReg(MSP, 0x20002000)  returns 0x00 (0000ms, 0731ms total)
T1D68 000:939 JLINK_WriteReg(PSP, 0x20002000)  returns 0x00 (0000ms, 0731ms total)
T1D68 000:939 JLINK_WriteReg(CFBP, 0x00000000)  returns 0x00 (0000ms, 0731ms total)
T1D68 000:939 JLINK_SetBPEx(Addr = 0x20000000, Type = 0xFFFFFFF2)  returns 0x00000003 (0000ms, 0731ms total)
T1D68 000:939 JLINK_Go() -- CPU_ReadMem(4 bytes @ 0xE0001000) -- CPU_WriteMem(4 bytes @ 0xE0001000) (0003ms, 0734ms total)
T1D68 000:942 JLINK_IsHalted()  returns FALSE (0001ms, 0735ms total)
T1D68 000:979 JLINK_IsHalted() -- CPU_ReadMem(2 bytes @ 0x20000000)  returns TRUE (0007ms, 0741ms total)
T1D68 000:986 JLINK_ReadReg(R15 (PC))  returns 0x20000000 (0000ms, 0734ms total)
T1D68 000:986 JLINK_ClrBPEx(BPHandle = 0x00000003)  returns 0x00 (0000ms, 0734ms total)
T1D68 000:986 JLINK_ReadReg(R0)  returns 0x00000000 (0000ms, 0734ms total)
T1D68 000:987 JLINK_WriteReg(R0, 0x0001B400)  returns 0x00 (0000ms, 0734ms total)
T1D68 000:987 JLINK_WriteReg(R1, 0x00000400)  returns 0x00 (0000ms, 0734ms total)
T1D68 000:987 JLINK_WriteReg(R2, 0x000000FF)  returns 0x00 (0000ms, 0734ms total)
T1D68 000:987 JLINK_WriteReg(R3, 0x00000000)  returns 0x00 (0000ms, 0734ms total)
T1D68 000:987 JLINK_WriteReg(R4, 0x00000000)  returns 0x00 (0000ms, 0734ms total)
T1D68 000:987 JLINK_WriteReg(R5, 0x00000000)  returns 0x00 (0000ms, 0734ms total)
T1D68 000:987 JLINK_WriteReg(R6, 0x00000000)  returns 0x00 (0000ms, 0734ms total)
T1D68 000:987 JLINK_WriteReg(R7, 0x00000000)  returns 0x00 (0000ms, 0734ms total)
T1D68 000:987 JLINK_WriteReg(R8, 0x00000000)  returns 0x00 (0000ms, 0734ms total)
T1D68 000:987 JLINK_WriteReg(R9, 0x20000474)  returns 0x00 (0000ms, 0734ms total)
T1D68 000:987 JLINK_WriteReg(R10, 0x00000000)  returns 0x00 (0000ms, 0734ms total)
T1D68 000:987 JLINK_WriteReg(R11, 0x00000000)  returns 0x00 (0000ms, 0734ms total)
T1D68 000:987 JLINK_WriteReg(R12, 0x00000000)  returns 0x00 (0000ms, 0734ms total)
T1D68 000:987 JLINK_WriteReg(R13 (SP), 0x20002000)  returns 0x00 (0000ms, 0734ms total)
T1D68 000:987 JLINK_WriteReg(R14, 0x20000001)  returns 0x00 (0000ms, 0734ms total)
T1D68 000:987 JLINK_WriteReg(R15 (PC), 0x20000188)  returns 0x00 (0000ms, 0734ms total)
T1D68 000:987 JLINK_WriteReg(XPSR, 0x01000000)  returns 0x00 (0000ms, 0734ms total)
T1D68 000:987 JLINK_WriteReg(MSP, 0x20002000)  returns 0x00 (0000ms, 0734ms total)
T1D68 000:987 JLINK_WriteReg(PSP, 0x20002000)  returns 0x00 (0000ms, 0734ms total)
T1D68 000:987 JLINK_WriteReg(CFBP, 0x00000000)  returns 0x00 (0000ms, 0734ms total)
T1D68 000:987 JLINK_SetBPEx(Addr = 0x20000000, Type = 0xFFFFFFF2)  returns 0x00000004 (0000ms, 0734ms total)
T1D68 000:987 JLINK_Go() -- CPU_ReadMem(4 bytes @ 0xE0001000) -- CPU_WriteMem(4 bytes @ 0xE0001000) (0006ms, 0740ms total)
T1D68 000:993 JLINK_IsHalted() -- CPU_ReadMem(2 bytes @ 0x20000000)  returns TRUE (0007ms, 0747ms total)
T1D68 001:000 JLINK_ReadReg(R15 (PC))  returns 0x20000000 (0000ms, 0740ms total)
T1D68 001:000 JLINK_ClrBPEx(BPHandle = 0x00000004)  returns 0x00 (0000ms, 0740ms total)
T1D68 001:000 JLINK_ReadReg(R0)  returns 0x00000001 (0000ms, 0740ms total)
T1D68 001:000 JLINK_WriteReg(R0, 0x0001B400)  returns 0x00 (0000ms, 0740ms total)
T1D68 001:000 JLINK_WriteReg(R1, 0x00000400)  returns 0x00 (0000ms, 0740ms total)
T1D68 001:000 JLINK_WriteReg(R2, 0x000000FF)  returns 0x00 (0000ms, 0740ms total)
T1D68 001:000 JLINK_WriteReg(R3, 0x00000000)  returns 0x00 (0001ms, 0741ms total)
T1D68 001:001 JLINK_WriteReg(R4, 0x00000000)  returns 0x00 (0000ms, 0741ms total)
T1D68 001:001 JLINK_WriteReg(R5, 0x00000000)  returns 0x00 (0000ms, 0741ms total)
T1D68 001:001 JLINK_WriteReg(R6, 0x00000000)  returns 0x00 (0000ms, 0741ms total)
T1D68 001:001 JLINK_WriteReg(R7, 0x00000000)  returns 0x00 (0000ms, 0741ms total)
T1D68 001:001 JLINK_WriteReg(R8, 0x00000000)  returns 0x00 (0000ms, 0741ms total)
T1D68 001:001 JLINK_WriteReg(R9, 0x20000474)  returns 0x00 (0000ms, 0741ms total)
T1D68 001:001 JLINK_WriteReg(R10, 0x00000000)  returns 0x00 (0000ms, 0741ms total)
T1D68 001:001 JLINK_WriteReg(R11, 0x00000000)  returns 0x00 (0000ms, 0741ms total)
T1D68 001:001 JLINK_WriteReg(R12, 0x00000000)  returns 0x00 (0000ms, 0741ms total)
T1D68 001:001 JLINK_WriteReg(R13 (SP), 0x20002000)  returns 0x00 (0000ms, 0741ms total)
T1D68 001:001 JLINK_WriteReg(R14, 0x20000001)  returns 0x00 (0000ms, 0741ms total)
T1D68 001:001 JLINK_WriteReg(R15 (PC), 0x20000104)  returns 0x00 (0000ms, 0741ms total)
T1D68 001:001 JLINK_WriteReg(XPSR, 0x01000000)  returns 0x00 (0000ms, 0741ms total)
T1D68 001:001 JLINK_WriteReg(MSP, 0x20002000)  returns 0x00 (0000ms, 0741ms total)
T1D68 001:001 JLINK_WriteReg(PSP, 0x20002000)  returns 0x00 (0000ms, 0741ms total)
T1D68 001:001 JLINK_WriteReg(CFBP, 0x00000000)  returns 0x00 (0000ms, 0741ms total)
T1D68 001:001 JLINK_SetBPEx(Addr = 0x20000000, Type = 0xFFFFFFF2)  returns 0x00000005 (0000ms, 0741ms total)
T1D68 001:001 JLINK_Go() -- CPU_ReadMem(4 bytes @ 0xE0001000) -- CPU_WriteMem(4 bytes @ 0xE0001000) (0004ms, 0745ms total)
T1D68 001:005 JLINK_IsHalted()  returns FALSE (0001ms, 0746ms total)
T1D68 001:008 JLINK_IsHalted()  returns FALSE (0001ms, 0746ms total)
T1D68 001:011 JLINK_IsHalted()  returns FALSE (0001ms, 0746ms total)
T1D68 001:013 JLINK_IsHalted()  returns FALSE (0001ms, 0746ms total)
T1D68 001:016 JLINK_IsHalted()  returns FALSE (0001ms, 0746ms total)
T1D68 001:019 JLINK_IsHalted()  returns FALSE (0001ms, 0746ms total)
T1D68 001:021 JLINK_IsHalted()  returns FALSE (0001ms, 0746ms total)
T1D68 001:024 JLINK_IsHalted()  returns FALSE (0001ms, 0746ms total)
T1D68 001:027 JLINK_IsHalted() -- CPU_ReadMem(2 bytes @ 0x20000000)  returns TRUE (0008ms, 0753ms total)
T1D68 001:035 JLINK_ReadReg(R15 (PC))  returns 0x20000000 (0000ms, 0745ms total)
T1D68 001:035 JLINK_ClrBPEx(BPHandle = 0x00000005)  returns 0x00 (0000ms, 0745ms total)
T1D68 001:035 JLINK_ReadReg(R0)  returns 0x00000000 (0000ms, 0745ms total)
T1D68 001:036 JLINK_WriteReg(R0, 0x0001B800)  returns 0x00 (0000ms, 0745ms total)
T1D68 001:037 JLINK_WriteReg(R1, 0x00000400)  returns 0x00 (0000ms, 0746ms total)
T1D68 001:037 JLINK_WriteReg(R2, 0x000000FF)  returns 0x00 (0000ms, 0746ms total)
T1D68 001:037 JLINK_WriteReg(R3, 0x00000000)  returns 0x00 (0000ms, 0746ms total)
T1D68 001:037 JLINK_WriteReg(R4, 0x00000000)  returns 0x00 (0000ms, 0746ms total)
T1D68 001:037 JLINK_WriteReg(R5, 0x00000000)  returns 0x00 (0000ms, 0746ms total)
T1D68 001:037 JLINK_WriteReg(R6, 0x00000000)  returns 0x00 (0000ms, 0746ms total)
T1D68 001:037 JLINK_WriteReg(R7, 0x00000000)  returns 0x00 (0000ms, 0746ms total)
T1D68 001:037 JLINK_WriteReg(R8, 0x00000000)  returns 0x00 (0000ms, 0746ms total)
T1D68 001:037 JLINK_WriteReg(R9, 0x20000474)  returns 0x00 (0000ms, 0746ms total)
T1D68 001:037 JLINK_WriteReg(R10, 0x00000000)  returns 0x00 (0000ms, 0746ms total)
T1D68 001:037 JLINK_WriteReg(R11, 0x00000000)  returns 0x00 (0000ms, 0746ms total)
T1D68 001:037 JLINK_WriteReg(R12, 0x00000000)  returns 0x00 (0000ms, 0746ms total)
T1D68 001:037 JLINK_WriteReg(R13 (SP), 0x20002000)  returns 0x00 (0000ms, 0746ms total)
T1D68 001:037 JLINK_WriteReg(R14, 0x20000001)  returns 0x00 (0000ms, 0746ms total)
T1D68 001:037 JLINK_WriteReg(R15 (PC), 0x20000188)  returns 0x00 (0000ms, 0746ms total)
T1D68 001:037 JLINK_WriteReg(XPSR, 0x01000000)  returns 0x00 (0000ms, 0746ms total)
T1D68 001:037 JLINK_WriteReg(MSP, 0x20002000)  returns 0x00 (0000ms, 0746ms total)
T1D68 001:037 JLINK_WriteReg(PSP, 0x20002000)  returns 0x00 (0000ms, 0746ms total)
T1D68 001:037 JLINK_WriteReg(CFBP, 0x00000000)  returns 0x00 (0000ms, 0746ms total)
T1D68 001:037 JLINK_SetBPEx(Addr = 0x20000000, Type = 0xFFFFFFF2)  returns 0x00000006 (0001ms, 0747ms total)
T1D68 001:038 JLINK_Go() -- CPU_ReadMem(4 bytes @ 0xE0001000) -- CPU_WriteMem(4 bytes @ 0xE0001000) (0004ms, 0751ms total)
T1D68 001:042 JLINK_IsHalted() -- CPU_ReadMem(2 bytes @ 0x20000000)  returns TRUE (0008ms, 0759ms total)
T1D68 001:050 JLINK_ReadReg(R15 (PC))  returns 0x20000000 (0000ms, 0751ms total)
T1D68 001:050 JLINK_ClrBPEx(BPHandle = 0x00000006)  returns 0x00 (0000ms, 0751ms total)
T1D68 001:050 JLINK_ReadReg(R0)  returns 0x00000001 (0000ms, 0751ms total)
T1D68 001:050 JLINK_WriteReg(R0, 0x0001B800)  returns 0x00 (0000ms, 0751ms total)
T1D68 001:050 JLINK_WriteReg(R1, 0x00000400)  returns 0x00 (0000ms, 0751ms total)
T1D68 001:050 JLINK_WriteReg(R2, 0x000000FF)  returns 0x00 (0000ms, 0751ms total)
T1D68 001:050 JLINK_WriteReg(R3, 0x00000000)  returns 0x00 (0000ms, 0751ms total)
T1D68 001:050 JLINK_WriteReg(R4, 0x00000000)  returns 0x00 (0000ms, 0751ms total)
T1D68 001:050 JLINK_WriteReg(R5, 0x00000000)  returns 0x00 (0000ms, 0751ms total)
T1D68 001:050 JLINK_WriteReg(R6, 0x00000000)  returns 0x00 (0000ms, 0751ms total)
T1D68 001:050 JLINK_WriteReg(R7, 0x00000000)  returns 0x00 (0000ms, 0751ms total)
T1D68 001:050 JLINK_WriteReg(R8, 0x00000000)  returns 0x00 (0000ms, 0751ms total)
T1D68 001:050 JLINK_WriteReg(R9, 0x20000474)  returns 0x00 (0000ms, 0751ms total)
T1D68 001:050 JLINK_WriteReg(R10, 0x00000000)  returns 0x00 (0001ms, 0752ms total)
T1D68 001:051 JLINK_WriteReg(R11, 0x00000000)  returns 0x00 (0000ms, 0752ms total)
T1D68 001:051 JLINK_WriteReg(R12, 0x00000000)  returns 0x00 (0000ms, 0752ms total)
T1D68 001:051 JLINK_WriteReg(R13 (SP), 0x20002000)  returns 0x00 (0000ms, 0752ms total)
T1D68 001:051 JLINK_WriteReg(R14, 0x20000001)  returns 0x00 (0000ms, 0752ms total)
T1D68 001:051 JLINK_WriteReg(R15 (PC), 0x20000104)  returns 0x00 (0000ms, 0752ms total)
T1D68 001:051 JLINK_WriteReg(XPSR, 0x01000000)  returns 0x00 (0000ms, 0752ms total)
T1D68 001:051 JLINK_WriteReg(MSP, 0x20002000)  returns 0x00 (0000ms, 0752ms total)
T1D68 001:051 JLINK_WriteReg(PSP, 0x20002000)  returns 0x00 (0000ms, 0752ms total)
T1D68 001:051 JLINK_WriteReg(CFBP, 0x00000000)  returns 0x00 (0000ms, 0752ms total)
T1D68 001:051 JLINK_SetBPEx(Addr = 0x20000000, Type = 0xFFFFFFF2)  returns 0x00000007 (0000ms, 0752ms total)
T1D68 001:051 JLINK_Go() -- CPU_ReadMem(4 bytes @ 0xE0001000) -- CPU_WriteMem(4 bytes @ 0xE0001000) (0004ms, 0756ms total)
T1D68 001:055 JLINK_IsHalted()  returns FALSE (0000ms, 0756ms total)
T1D68 001:090 JLINK_IsHalted() -- CPU_ReadMem(2 bytes @ 0x20000000)  returns TRUE (0007ms, 0763ms total)
T1D68 001:097 JLINK_ReadReg(R15 (PC))  returns 0x20000000 (0000ms, 0756ms total)
T1D68 001:097 JLINK_ClrBPEx(BPHandle = 0x00000007)  returns 0x00 (0000ms, 0756ms total)
T1D68 001:097 JLINK_ReadReg(R0)  returns 0x00000000 (0000ms, 0756ms total)
T1D68 001:098 JLINK_WriteReg(R0, 0x0001BC00)  returns 0x00 (0000ms, 0756ms total)
T1D68 001:098 JLINK_WriteReg(R1, 0x00000400)  returns 0x00 (0000ms, 0756ms total)
T1D68 001:098 JLINK_WriteReg(R2, 0x000000FF)  returns 0x00 (0000ms, 0756ms total)
T1D68 001:098 JLINK_WriteReg(R3, 0x00000000)  returns 0x00 (0001ms, 0757ms total)
T1D68 001:099 JLINK_WriteReg(R4, 0x00000000)  returns 0x00 (0000ms, 0757ms total)
T1D68 001:099 JLINK_WriteReg(R5, 0x00000000)  returns 0x00 (0000ms, 0757ms total)
T1D68 001:099 JLINK_WriteReg(R6, 0x00000000)  returns 0x00 (0000ms, 0757ms total)
T1D68 001:099 JLINK_WriteReg(R7, 0x00000000)  returns 0x00 (0000ms, 0757ms total)
T1D68 001:099 JLINK_WriteReg(R8, 0x00000000)  returns 0x00 (0000ms, 0757ms total)
T1D68 001:099 JLINK_WriteReg(R9, 0x20000474)  returns 0x00 (0000ms, 0757ms total)
T1D68 001:099 JLINK_WriteReg(R10, 0x00000000)  returns 0x00 (0000ms, 0757ms total)
T1D68 001:099 JLINK_WriteReg(R11, 0x00000000)  returns 0x00 (0000ms, 0757ms total)
T1D68 001:099 JLINK_WriteReg(R12, 0x00000000)  returns 0x00 (0000ms, 0757ms total)
T1D68 001:099 JLINK_WriteReg(R13 (SP), 0x20002000)  returns 0x00 (0000ms, 0757ms total)
T1D68 001:099 JLINK_WriteReg(R14, 0x20000001)  returns 0x00 (0000ms, 0757ms total)
T1D68 001:099 JLINK_WriteReg(R15 (PC), 0x20000188)  returns 0x00 (0000ms, 0757ms total)
T1D68 001:099 JLINK_WriteReg(XPSR, 0x01000000)  returns 0x00 (0000ms, 0757ms total)
T1D68 001:099 JLINK_WriteReg(MSP, 0x20002000)  returns 0x00 (0000ms, 0757ms total)
T1D68 001:099 JLINK_WriteReg(PSP, 0x20002000)  returns 0x00 (0000ms, 0757ms total)
T1D68 001:099 JLINK_WriteReg(CFBP, 0x00000000)  returns 0x00 (0000ms, 0757ms total)
T1D68 001:099 JLINK_SetBPEx(Addr = 0x20000000, Type = 0xFFFFFFF2)  returns 0x00000008 (0000ms, 0757ms total)
T1D68 001:099 JLINK_Go() -- CPU_ReadMem(4 bytes @ 0xE0001000) -- CPU_WriteMem(4 bytes @ 0xE0001000) (0005ms, 0762ms total)
T1D68 001:104 JLINK_IsHalted() -- CPU_ReadMem(2 bytes @ 0x20000000)  returns TRUE (0007ms, 0769ms total)
T1D68 001:111 JLINK_ReadReg(R15 (PC))  returns 0x20000000 (0000ms, 0762ms total)
T1D68 001:111 JLINK_ClrBPEx(BPHandle = 0x00000008)  returns 0x00 (0001ms, 0763ms total)
T1D68 001:112 JLINK_ReadReg(R0)  returns 0x00000001 (0000ms, 0763ms total)
T1D68 001:112 JLINK_WriteReg(R0, 0x0001BC00)  returns 0x00 (0000ms, 0763ms total)
T1D68 001:112 JLINK_WriteReg(R1, 0x00000400)  returns 0x00 (0000ms, 0763ms total)
T1D68 001:112 JLINK_WriteReg(R2, 0x000000FF)  returns 0x00 (0000ms, 0763ms total)
T1D68 001:112 JLINK_WriteReg(R3, 0x00000000)  returns 0x00 (0000ms, 0763ms total)
T1D68 001:112 JLINK_WriteReg(R4, 0x00000000)  returns 0x00 (0000ms, 0763ms total)
T1D68 001:112 JLINK_WriteReg(R5, 0x00000000)  returns 0x00 (0000ms, 0763ms total)
T1D68 001:112 JLINK_WriteReg(R6, 0x00000000)  returns 0x00 (0000ms, 0763ms total)
T1D68 001:112 JLINK_WriteReg(R7, 0x00000000)  returns 0x00 (0000ms, 0763ms total)
T1D68 001:112 JLINK_WriteReg(R8, 0x00000000)  returns 0x00 (0000ms, 0763ms total)
T1D68 001:112 JLINK_WriteReg(R9, 0x20000474)  returns 0x00 (0000ms, 0763ms total)
T1D68 001:112 JLINK_WriteReg(R10, 0x00000000)  returns 0x00 (0000ms, 0763ms total)
T1D68 001:112 JLINK_WriteReg(R11, 0x00000000)  returns 0x00 (0000ms, 0763ms total)
T1D68 001:112 JLINK_WriteReg(R12, 0x00000000)  returns 0x00 (0000ms, 0763ms total)
T1D68 001:112 JLINK_WriteReg(R13 (SP), 0x20002000)  returns 0x00 (0000ms, 0763ms total)
T1D68 001:113 JLINK_WriteReg(R14, 0x20000001)  returns 0x00 (0000ms, 0764ms total)
T1D68 001:113 JLINK_WriteReg(R15 (PC), 0x20000104)  returns 0x00 (0000ms, 0764ms total)
T1D68 001:113 JLINK_WriteReg(XPSR, 0x01000000)  returns 0x00 (0000ms, 0764ms total)
T1D68 001:113 JLINK_WriteReg(MSP, 0x20002000)  returns 0x00 (0000ms, 0764ms total)
T1D68 001:113 JLINK_WriteReg(PSP, 0x20002000)  returns 0x00 (0000ms, 0764ms total)
T1D68 001:113 JLINK_WriteReg(CFBP, 0x00000000)  returns 0x00 (0000ms, 0764ms total)
T1D68 001:113 JLINK_SetBPEx(Addr = 0x20000000, Type = 0xFFFFFFF2)  returns 0x00000009 (0000ms, 0764ms total)
T1D68 001:113 JLINK_Go() -- CPU_ReadMem(4 bytes @ 0xE0001000) -- CPU_WriteMem(4 bytes @ 0xE0001000) (0003ms, 0767ms total)
T1D68 001:117 JLINK_IsHalted()  returns FALSE (0000ms, 0767ms total)
T1D68 001:119 JLINK_IsHalted()  returns FALSE (0001ms, 0768ms total)
T1D68 001:122 JLINK_IsHalted()  returns FALSE (0001ms, 0768ms total)
T1D68 001:124 JLINK_IsHalted()  returns FALSE (0001ms, 0768ms total)
T1D68 001:127 JLINK_IsHalted()  returns FALSE (0001ms, 0768ms total)
T1D68 001:130 JLINK_IsHalted()  returns FALSE (0001ms, 0768ms total)
T1D68 001:133 JLINK_IsHalted()  returns FALSE (0001ms, 0768ms total)
T1D68 001:135 JLINK_IsHalted()  returns FALSE (0001ms, 0768ms total)
T1D68 001:138 JLINK_IsHalted() -- CPU_ReadMem(2 bytes @ 0x20000000)  returns TRUE (0008ms, 0775ms total)
T1D68 001:146 JLINK_ReadReg(R15 (PC))  returns 0x20000000 (0000ms, 0767ms total)
T1D68 001:146 JLINK_ClrBPEx(BPHandle = 0x00000009)  returns 0x00 (0000ms, 0767ms total)
T1D68 001:146 JLINK_ReadReg(R0)  returns 0x00000000 (0000ms, 0767ms total)
T1D68 001:148 JLINK_WriteReg(R0, 0x0001C000)  returns 0x00 (0000ms, 0767ms total)
T1D68 001:148 JLINK_WriteReg(R1, 0x00000400)  returns 0x00 (0000ms, 0767ms total)
T1D68 001:148 JLINK_WriteReg(R2, 0x000000FF)  returns 0x00 (0000ms, 0767ms total)
T1D68 001:148 JLINK_WriteReg(R3, 0x00000000)  returns 0x00 (0000ms, 0767ms total)
T1D68 001:148 JLINK_WriteReg(R4, 0x00000000)  returns 0x00 (0000ms, 0767ms total)
T1D68 001:148 JLINK_WriteReg(R5, 0x00000000)  returns 0x00 (0000ms, 0767ms total)
T1D68 001:148 JLINK_WriteReg(R6, 0x00000000)  returns 0x00 (0000ms, 0767ms total)
T1D68 001:148 JLINK_WriteReg(R7, 0x00000000)  returns 0x00 (0000ms, 0767ms total)
T1D68 001:148 JLINK_WriteReg(R8, 0x00000000)  returns 0x00 (0000ms, 0767ms total)
T1D68 001:148 JLINK_WriteReg(R9, 0x20000474)  returns 0x00 (0000ms, 0767ms total)
T1D68 001:148 JLINK_WriteReg(R10, 0x00000000)  returns 0x00 (0000ms, 0767ms total)
T1D68 001:148 JLINK_WriteReg(R11, 0x00000000)  returns 0x00 (0000ms, 0767ms total)
T1D68 001:148 JLINK_WriteReg(R12, 0x00000000)  returns 0x00 (0000ms, 0767ms total)
T1D68 001:148 JLINK_WriteReg(R13 (SP), 0x20002000)  returns 0x00 (0000ms, 0767ms total)
T1D68 001:148 JLINK_WriteReg(R14, 0x20000001)  returns 0x00 (0000ms, 0767ms total)
T1D68 001:148 JLINK_WriteReg(R15 (PC), 0x20000188)  returns 0x00 (0000ms, 0767ms total)
T1D68 001:148 JLINK_WriteReg(XPSR, 0x01000000)  returns 0x00 (0000ms, 0767ms total)
T1D68 001:148 JLINK_WriteReg(MSP, 0x20002000)  returns 0x00 (0000ms, 0767ms total)
T1D68 001:148 JLINK_WriteReg(PSP, 0x20002000)  returns 0x00 (0001ms, 0768ms total)
T1D68 001:149 JLINK_WriteReg(CFBP, 0x00000000)  returns 0x00 (0000ms, 0768ms total)
T1D68 001:149 JLINK_SetBPEx(Addr = 0x20000000, Type = 0xFFFFFFF2)  returns 0x0000000A (0000ms, 0768ms total)
T1D68 001:149 JLINK_Go() -- CPU_ReadMem(4 bytes @ 0xE0001000) -- CPU_WriteMem(4 bytes @ 0xE0001000) (0005ms, 0773ms total)
T1D68 001:154 JLINK_IsHalted() -- CPU_ReadMem(2 bytes @ 0x20000000)  returns TRUE (0007ms, 0780ms total)
T1D68 001:161 JLINK_ReadReg(R15 (PC))  returns 0x20000000 (0000ms, 0773ms total)
T1D68 001:161 JLINK_ClrBPEx(BPHandle = 0x0000000A)  returns 0x00 (0000ms, 0773ms total)
T1D68 001:161 JLINK_ReadReg(R0)  returns 0x00000001 (0000ms, 0773ms total)
T1D68 001:161 JLINK_WriteReg(R0, 0x0001C000)  returns 0x00 (0000ms, 0773ms total)
T1D68 001:161 JLINK_WriteReg(R1, 0x00000400)  returns 0x00 (0001ms, 0774ms total)
T1D68 001:162 JLINK_WriteReg(R2, 0x000000FF)  returns 0x00 (0000ms, 0774ms total)
T1D68 001:162 JLINK_WriteReg(R3, 0x00000000)  returns 0x00 (0000ms, 0774ms total)
T1D68 001:162 JLINK_WriteReg(R4, 0x00000000)  returns 0x00 (0000ms, 0774ms total)
T1D68 001:162 JLINK_WriteReg(R5, 0x00000000)  returns 0x00 (0000ms, 0774ms total)
T1D68 001:162 JLINK_WriteReg(R6, 0x00000000)  returns 0x00 (0000ms, 0774ms total)
T1D68 001:162 JLINK_WriteReg(R7, 0x00000000)  returns 0x00 (0000ms, 0774ms total)
T1D68 001:162 JLINK_WriteReg(R8, 0x00000000)  returns 0x00 (0000ms, 0774ms total)
T1D68 001:162 JLINK_WriteReg(R9, 0x20000474)  returns 0x00 (0000ms, 0774ms total)
T1D68 001:162 JLINK_WriteReg(R10, 0x00000000)  returns 0x00 (0000ms, 0774ms total)
T1D68 001:162 JLINK_WriteReg(R11, 0x00000000)  returns 0x00 (0000ms, 0774ms total)
T1D68 001:162 JLINK_WriteReg(R12, 0x00000000)  returns 0x00 (0000ms, 0774ms total)
T1D68 001:162 JLINK_WriteReg(R13 (SP), 0x20002000)  returns 0x00 (0000ms, 0774ms total)
T1D68 001:162 JLINK_WriteReg(R14, 0x20000001)  returns 0x00 (0000ms, 0774ms total)
T1D68 001:162 JLINK_WriteReg(R15 (PC), 0x20000104)  returns 0x00 (0000ms, 0774ms total)
T1D68 001:162 JLINK_WriteReg(XPSR, 0x01000000)  returns 0x00 (0000ms, 0774ms total)
T1D68 001:162 JLINK_WriteReg(MSP, 0x20002000)  returns 0x00 (0000ms, 0774ms total)
T1D68 001:162 JLINK_WriteReg(PSP, 0x20002000)  returns 0x00 (0001ms, 0775ms total)
T1D68 001:163 JLINK_WriteReg(CFBP, 0x00000000)  returns 0x00 (0000ms, 0775ms total)
T1D68 001:163 JLINK_SetBPEx(Addr = 0x20000000, Type = 0xFFFFFFF2)  returns 0x0000000B (0000ms, 0775ms total)
T1D68 001:163 JLINK_Go() -- CPU_ReadMem(4 bytes @ 0xE0001000) -- CPU_WriteMem(4 bytes @ 0xE0001000) (0005ms, 0780ms total)
T1D68 001:168 JLINK_IsHalted()  returns FALSE (0001ms, 0781ms total)
T1D68 001:201 JLINK_IsHalted() -- CPU_ReadMem(2 bytes @ 0x20000000)  returns TRUE (0007ms, 0787ms total)
T1D68 001:208 JLINK_ReadReg(R15 (PC))  returns 0x20000000 (0000ms, 0780ms total)
T1D68 001:208 JLINK_ClrBPEx(BPHandle = 0x0000000B)  returns 0x00 (0000ms, 0780ms total)
T1D68 001:208 JLINK_ReadReg(R0)  returns 0x00000000 (0000ms, 0780ms total)
T1D68 001:209 JLINK_WriteReg(R0, 0x0001C400)  returns 0x00 (0001ms, 0781ms total)
T1D68 001:210 JLINK_WriteReg(R1, 0x00000400)  returns 0x00 (0000ms, 0781ms total)
T1D68 001:210 JLINK_WriteReg(R2, 0x000000FF)  returns 0x00 (0000ms, 0781ms total)
T1D68 001:210 JLINK_WriteReg(R3, 0x00000000)  returns 0x00 (0000ms, 0781ms total)
T1D68 001:210 JLINK_WriteReg(R4, 0x00000000)  returns 0x00 (0000ms, 0781ms total)
T1D68 001:210 JLINK_WriteReg(R5, 0x00000000)  returns 0x00 (0000ms, 0781ms total)
T1D68 001:210 JLINK_WriteReg(R6, 0x00000000)  returns 0x00 (0000ms, 0781ms total)
T1D68 001:210 JLINK_WriteReg(R7, 0x00000000)  returns 0x00 (0000ms, 0781ms total)
T1D68 001:210 JLINK_WriteReg(R8, 0x00000000)  returns 0x00 (0000ms, 0781ms total)
T1D68 001:210 JLINK_WriteReg(R9, 0x20000474)  returns 0x00 (0000ms, 0781ms total)
T1D68 001:210 JLINK_WriteReg(R10, 0x00000000)  returns 0x00 (0000ms, 0781ms total)
T1D68 001:210 JLINK_WriteReg(R11, 0x00000000)  returns 0x00 (0000ms, 0781ms total)
T1D68 001:210 JLINK_WriteReg(R12, 0x00000000)  returns 0x00 (0000ms, 0781ms total)
T1D68 001:210 JLINK_WriteReg(R13 (SP), 0x20002000)  returns 0x00 (0000ms, 0781ms total)
T1D68 001:210 JLINK_WriteReg(R14, 0x20000001)  returns 0x00 (0000ms, 0781ms total)
T1D68 001:210 JLINK_WriteReg(R15 (PC), 0x20000188)  returns 0x00 (0000ms, 0781ms total)
T1D68 001:210 JLINK_WriteReg(XPSR, 0x01000000)  returns 0x00 (0000ms, 0781ms total)
T1D68 001:210 JLINK_WriteReg(MSP, 0x20002000)  returns 0x00 (0000ms, 0781ms total)
T1D68 001:210 JLINK_WriteReg(PSP, 0x20002000)  returns 0x00 (0000ms, 0781ms total)
T1D68 001:210 JLINK_WriteReg(CFBP, 0x00000000)  returns 0x00 (0000ms, 0781ms total)
T1D68 001:210 JLINK_SetBPEx(Addr = 0x20000000, Type = 0xFFFFFFF2)  returns 0x0000000C (0000ms, 0781ms total)
T1D68 001:210 JLINK_Go() -- CPU_ReadMem(4 bytes @ 0xE0001000) -- CPU_WriteMem(4 bytes @ 0xE0001000) (0005ms, 0786ms total)
T1D68 001:216 JLINK_IsHalted() -- CPU_ReadMem(2 bytes @ 0x20000000)  returns TRUE (0007ms, 0794ms total)
T1D68 001:223 JLINK_ReadReg(R15 (PC))  returns 0x20000000 (0000ms, 0787ms total)
T1D68 001:223 JLINK_ClrBPEx(BPHandle = 0x0000000C)  returns 0x00 (0000ms, 0787ms total)
T1D68 001:223 JLINK_ReadReg(R0)  returns 0x00000001 (0000ms, 0787ms total)
T1D68 001:223 JLINK_WriteReg(R0, 0x0001C400)  returns 0x00 (0000ms, 0787ms total)
T1D68 001:223 JLINK_WriteReg(R1, 0x00000400)  returns 0x00 (0000ms, 0787ms total)
T1D68 001:223 JLINK_WriteReg(R2, 0x000000FF)  returns 0x00 (0000ms, 0787ms total)
T1D68 001:223 JLINK_WriteReg(R3, 0x00000000)  returns 0x00 (0000ms, 0787ms total)
T1D68 001:223 JLINK_WriteReg(R4, 0x00000000)  returns 0x00 (0000ms, 0787ms total)
T1D68 001:223 JLINK_WriteReg(R5, 0x00000000)  returns 0x00 (0000ms, 0787ms total)
T1D68 001:223 JLINK_WriteReg(R6, 0x00000000)  returns 0x00 (0000ms, 0787ms total)
T1D68 001:223 JLINK_WriteReg(R7, 0x00000000)  returns 0x00 (0000ms, 0787ms total)
T1D68 001:223 JLINK_WriteReg(R8, 0x00000000)  returns 0x00 (0000ms, 0787ms total)
T1D68 001:223 JLINK_WriteReg(R9, 0x20000474)  returns 0x00 (0000ms, 0787ms total)
T1D68 001:223 JLINK_WriteReg(R10, 0x00000000)  returns 0x00 (0000ms, 0787ms total)
T1D68 001:223 JLINK_WriteReg(R11, 0x00000000)  returns 0x00 (0001ms, 0788ms total)
T1D68 001:224 JLINK_WriteReg(R12, 0x00000000)  returns 0x00 (0000ms, 0788ms total)
T1D68 001:224 JLINK_WriteReg(R13 (SP), 0x20002000)  returns 0x00 (0000ms, 0788ms total)
T1D68 001:224 JLINK_WriteReg(R14, 0x20000001)  returns 0x00 (0000ms, 0788ms total)
T1D68 001:224 JLINK_WriteReg(R15 (PC), 0x20000104)  returns 0x00 (0000ms, 0788ms total)
T1D68 001:224 JLINK_WriteReg(XPSR, 0x01000000)  returns 0x00 (0000ms, 0788ms total)
T1D68 001:224 JLINK_WriteReg(MSP, 0x20002000)  returns 0x00 (0000ms, 0788ms total)
T1D68 001:224 JLINK_WriteReg(PSP, 0x20002000)  returns 0x00 (0000ms, 0788ms total)
T1D68 001:224 JLINK_WriteReg(CFBP, 0x00000000)  returns 0x00 (0000ms, 0788ms total)
T1D68 001:224 JLINK_SetBPEx(Addr = 0x20000000, Type = 0xFFFFFFF2)  returns 0x0000000D (0000ms, 0788ms total)
T1D68 001:224 JLINK_Go() -- CPU_ReadMem(4 bytes @ 0xE0001000) -- CPU_WriteMem(4 bytes @ 0xE0001000) (0004ms, 0792ms total)
T1D68 001:228 JLINK_IsHalted()  returns FALSE (0001ms, 0793ms total)
T1D68 001:232 JLINK_IsHalted()  returns FALSE (0000ms, 0792ms total)
T1D68 001:234 JLINK_IsHalted()  returns FALSE (0000ms, 0792ms total)
T1D68 001:236 JLINK_IsHalted()  returns FALSE (0000ms, 0792ms total)
T1D68 001:238 JLINK_IsHalted()  returns FALSE (0000ms, 0792ms total)
T1D68 001:241 JLINK_IsHalted()  returns FALSE (0000ms, 0792ms total)
T1D68 001:243 JLINK_IsHalted()  returns FALSE (0001ms, 0793ms total)
T1D68 001:246 JLINK_IsHalted()  returns FALSE (0001ms, 0793ms total)
T1D68 001:248 JLINK_IsHalted() -- CPU_ReadMem(2 bytes @ 0x20000000)  returns TRUE (0007ms, 0799ms total)
T1D68 001:255 JLINK_ReadReg(R15 (PC))  returns 0x20000000 (0000ms, 0792ms total)
T1D68 001:255 JLINK_ClrBPEx(BPHandle = 0x0000000D)  returns 0x00 (0000ms, 0792ms total)
T1D68 001:255 JLINK_ReadReg(R0)  returns 0x00000000 (0000ms, 0792ms total)
T1D68 001:257 JLINK_WriteReg(R0, 0x0001C800)  returns 0x00 (0000ms, 0792ms total)
T1D68 001:257 JLINK_WriteReg(R1, 0x00000400)  returns 0x00 (0000ms, 0792ms total)
T1D68 001:257 JLINK_WriteReg(R2, 0x000000FF)  returns 0x00 (0001ms, 0793ms total)
T1D68 001:258 JLINK_WriteReg(R3, 0x00000000)  returns 0x00 (0000ms, 0793ms total)
T1D68 001:258 JLINK_WriteReg(R4, 0x00000000)  returns 0x00 (0000ms, 0793ms total)
T1D68 001:258 JLINK_WriteReg(R5, 0x00000000)  returns 0x00 (0000ms, 0793ms total)
T1D68 001:258 JLINK_WriteReg(R6, 0x00000000)  returns 0x00 (0000ms, 0793ms total)
T1D68 001:258 JLINK_WriteReg(R7, 0x00000000)  returns 0x00 (0000ms, 0793ms total)
T1D68 001:258 JLINK_WriteReg(R8, 0x00000000)  returns 0x00 (0000ms, 0793ms total)
T1D68 001:258 JLINK_WriteReg(R9, 0x20000474)  returns 0x00 (0000ms, 0793ms total)
T1D68 001:258 JLINK_WriteReg(R10, 0x00000000)  returns 0x00 (0000ms, 0793ms total)
T1D68 001:258 JLINK_WriteReg(R11, 0x00000000)  returns 0x00 (0000ms, 0793ms total)
T1D68 001:258 JLINK_WriteReg(R12, 0x00000000)  returns 0x00 (0000ms, 0793ms total)
T1D68 001:258 JLINK_WriteReg(R13 (SP), 0x20002000)  returns 0x00 (0000ms, 0793ms total)
T1D68 001:258 JLINK_WriteReg(R14, 0x20000001)  returns 0x00 (0000ms, 0793ms total)
T1D68 001:258 JLINK_WriteReg(R15 (PC), 0x20000188)  returns 0x00 (0000ms, 0793ms total)
T1D68 001:258 JLINK_WriteReg(XPSR, 0x01000000)  returns 0x00 (0000ms, 0793ms total)
T1D68 001:258 JLINK_WriteReg(MSP, 0x20002000)  returns 0x00 (0000ms, 0793ms total)
T1D68 001:258 JLINK_WriteReg(PSP, 0x20002000)  returns 0x00 (0000ms, 0793ms total)
T1D68 001:258 JLINK_WriteReg(CFBP, 0x00000000)  returns 0x00 (0000ms, 0793ms total)
T1D68 001:258 JLINK_SetBPEx(Addr = 0x20000000, Type = 0xFFFFFFF2)  returns 0x0000000E (0000ms, 0793ms total)
T1D68 001:258 JLINK_Go() -- CPU_ReadMem(4 bytes @ 0xE0001000) -- CPU_WriteMem(4 bytes @ 0xE0001000) (0007ms, 0800ms total)
T1D68 001:265 JLINK_IsHalted() -- CPU_ReadMem(2 bytes @ 0x20000000)  returns TRUE (0007ms, 0807ms total)
T1D68 001:272 JLINK_ReadReg(R15 (PC))  returns 0x20000000 (0000ms, 0800ms total)
T1D68 001:272 JLINK_ClrBPEx(BPHandle = 0x0000000E)  returns 0x00 (0000ms, 0800ms total)
T1D68 001:272 JLINK_ReadReg(R0)  returns 0x00000001 (0000ms, 0800ms total)
T1D68 001:272 JLINK_WriteReg(R0, 0x0001C800)  returns 0x00 (0000ms, 0800ms total)
T1D68 001:272 JLINK_WriteReg(R1, 0x00000400)  returns 0x00 (0000ms, 0800ms total)
T1D68 001:272 JLINK_WriteReg(R2, 0x000000FF)  returns 0x00 (0000ms, 0800ms total)
T1D68 001:272 JLINK_WriteReg(R3, 0x00000000)  returns 0x00 (0000ms, 0800ms total)
T1D68 001:272 JLINK_WriteReg(R4, 0x00000000)  returns 0x00 (0000ms, 0800ms total)
T1D68 001:272 JLINK_WriteReg(R5, 0x00000000)  returns 0x00 (0000ms, 0800ms total)
T1D68 001:272 JLINK_WriteReg(R6, 0x00000000)  returns 0x00 (0000ms, 0800ms total)
T1D68 001:272 JLINK_WriteReg(R7, 0x00000000)  returns 0x00 (0000ms, 0800ms total)
T1D68 001:272 JLINK_WriteReg(R8, 0x00000000)  returns 0x00 (0000ms, 0800ms total)
T1D68 001:272 JLINK_WriteReg(R9, 0x20000474)  returns 0x00 (0000ms, 0800ms total)
T1D68 001:272 JLINK_WriteReg(R10, 0x00000000)  returns 0x00 (0000ms, 0800ms total)
T1D68 001:272 JLINK_WriteReg(R11, 0x00000000)  returns 0x00 (0000ms, 0800ms total)
T1D68 001:272 JLINK_WriteReg(R12, 0x00000000)  returns 0x00 (0000ms, 0800ms total)
T1D68 001:272 JLINK_WriteReg(R13 (SP), 0x20002000)  returns 0x00 (0000ms, 0800ms total)
T1D68 001:272 JLINK_WriteReg(R14, 0x20000001)  returns 0x00 (0001ms, 0801ms total)
T1D68 001:273 JLINK_WriteReg(R15 (PC), 0x20000104)  returns 0x00 (0000ms, 0801ms total)
T1D68 001:273 JLINK_WriteReg(XPSR, 0x01000000)  returns 0x00 (0000ms, 0801ms total)
T1D68 001:273 JLINK_WriteReg(MSP, 0x20002000)  returns 0x00 (0000ms, 0801ms total)
T1D68 001:273 JLINK_WriteReg(PSP, 0x20002000)  returns 0x00 (0000ms, 0801ms total)
T1D68 001:273 JLINK_WriteReg(CFBP, 0x00000000)  returns 0x00 (0000ms, 0801ms total)
T1D68 001:273 JLINK_SetBPEx(Addr = 0x20000000, Type = 0xFFFFFFF2)  returns 0x0000000F (0000ms, 0801ms total)
T1D68 001:273 JLINK_Go() -- CPU_ReadMem(4 bytes @ 0xE0001000) -- CPU_WriteMem(4 bytes @ 0xE0001000) (0006ms, 0807ms total)
T1D68 001:279 JLINK_IsHalted()  returns FALSE (0000ms, 0807ms total)
T1D68 001:328 JLINK_IsHalted() -- CPU_ReadMem(2 bytes @ 0x20000000)  returns TRUE (0007ms, 0814ms total)
T1D68 001:335 JLINK_ReadReg(R15 (PC))  returns 0x20000000 (0000ms, 0807ms total)
T1D68 001:335 JLINK_ClrBPEx(BPHandle = 0x0000000F)  returns 0x00 (0000ms, 0807ms total)
T1D68 001:335 JLINK_ReadReg(R0)  returns 0x00000000 (0000ms, 0807ms total)
T1D68 001:336 JLINK_WriteReg(R0, 0x0001CC00)  returns 0x00 (0000ms, 0807ms total)
T1D68 001:336 JLINK_WriteReg(R1, 0x00000400)  returns 0x00 (0000ms, 0807ms total)
T1D68 001:336 JLINK_WriteReg(R2, 0x000000FF)  returns 0x00 (0000ms, 0807ms total)
T1D68 001:336 JLINK_WriteReg(R3, 0x00000000)  returns 0x00 (0000ms, 0807ms total)
T1D68 001:336 JLINK_WriteReg(R4, 0x00000000)  returns 0x00 (0000ms, 0807ms total)
T1D68 001:336 JLINK_WriteReg(R5, 0x00000000)  returns 0x00 (0001ms, 0808ms total)
T1D68 001:337 JLINK_WriteReg(R6, 0x00000000)  returns 0x00 (0000ms, 0808ms total)
T1D68 001:337 JLINK_WriteReg(R7, 0x00000000)  returns 0x00 (0000ms, 0808ms total)
T1D68 001:337 JLINK_WriteReg(R8, 0x00000000)  returns 0x00 (0000ms, 0808ms total)
T1D68 001:337 JLINK_WriteReg(R9, 0x20000474)  returns 0x00 (0000ms, 0808ms total)
T1D68 001:337 JLINK_WriteReg(R10, 0x00000000)  returns 0x00 (0000ms, 0808ms total)
T1D68 001:337 JLINK_WriteReg(R11, 0x00000000)  returns 0x00 (0000ms, 0808ms total)
T1D68 001:337 JLINK_WriteReg(R12, 0x00000000)  returns 0x00 (0000ms, 0808ms total)
T1D68 001:337 JLINK_WriteReg(R13 (SP), 0x20002000)  returns 0x00 (0000ms, 0808ms total)
T1D68 001:337 JLINK_WriteReg(R14, 0x20000001)  returns 0x00 (0000ms, 0808ms total)
T1D68 001:337 JLINK_WriteReg(R15 (PC), 0x20000188)  returns 0x00 (0000ms, 0808ms total)
T1D68 001:337 JLINK_WriteReg(XPSR, 0x01000000)  returns 0x00 (0000ms, 0808ms total)
T1D68 001:337 JLINK_WriteReg(MSP, 0x20002000)  returns 0x00 (0000ms, 0808ms total)
T1D68 001:337 JLINK_WriteReg(PSP, 0x20002000)  returns 0x00 (0000ms, 0808ms total)
T1D68 001:337 JLINK_WriteReg(CFBP, 0x00000000)  returns 0x00 (0000ms, 0808ms total)
T1D68 001:337 JLINK_SetBPEx(Addr = 0x20000000, Type = 0xFFFFFFF2)  returns 0x00000010 (0000ms, 0808ms total)
T1D68 001:337 JLINK_Go() -- CPU_ReadMem(4 bytes @ 0xE0001000) -- CPU_WriteMem(4 bytes @ 0xE0001000) (0005ms, 0813ms total)
T1D68 001:342 JLINK_IsHalted() -- CPU_ReadMem(2 bytes @ 0x20000000)  returns TRUE (0008ms, 0821ms total)
T1D68 001:350 JLINK_ReadReg(R15 (PC))  returns 0x20000000 (0000ms, 0813ms total)
T1D68 001:350 JLINK_ClrBPEx(BPHandle = 0x00000010)  returns 0x00 (0000ms, 0813ms total)
T1D68 001:350 JLINK_ReadReg(R0)  returns 0x00000001 (0000ms, 0813ms total)
T1D68 001:350 JLINK_WriteReg(R0, 0x0001CC00)  returns 0x00 (0000ms, 0813ms total)
T1D68 001:350 JLINK_WriteReg(R1, 0x00000400)  returns 0x00 (0000ms, 0813ms total)
T1D68 001:350 JLINK_WriteReg(R2, 0x000000FF)  returns 0x00 (0000ms, 0813ms total)
T1D68 001:350 JLINK_WriteReg(R3, 0x00000000)  returns 0x00 (0000ms, 0813ms total)
T1D68 001:350 JLINK_WriteReg(R4, 0x00000000)  returns 0x00 (0000ms, 0813ms total)
T1D68 001:350 JLINK_WriteReg(R5, 0x00000000)  returns 0x00 (0000ms, 0813ms total)
T1D68 001:350 JLINK_WriteReg(R6, 0x00000000)  returns 0x00 (0000ms, 0813ms total)
T1D68 001:350 JLINK_WriteReg(R7, 0x00000000)  returns 0x00 (0000ms, 0813ms total)
T1D68 001:350 JLINK_WriteReg(R8, 0x00000000)  returns 0x00 (0000ms, 0813ms total)
T1D68 001:350 JLINK_WriteReg(R9, 0x20000474)  returns 0x00 (0000ms, 0813ms total)
T1D68 001:350 JLINK_WriteReg(R10, 0x00000000)  returns 0x00 (0000ms, 0813ms total)
T1D68 001:350 JLINK_WriteReg(R11, 0x00000000)  returns 0x00 (0000ms, 0813ms total)
T1D68 001:350 JLINK_WriteReg(R12, 0x00000000)  returns 0x00 (0000ms, 0813ms total)
T1D68 001:350 JLINK_WriteReg(R13 (SP), 0x20002000)  returns 0x00 (0000ms, 0813ms total)
T1D68 001:350 JLINK_WriteReg(R14, 0x20000001)  returns 0x00 (0000ms, 0813ms total)
T1D68 001:350 JLINK_WriteReg(R15 (PC), 0x20000104)  returns 0x00 (0000ms, 0813ms total)
T1D68 001:350 JLINK_WriteReg(XPSR, 0x01000000)  returns 0x00 (0000ms, 0813ms total)
T1D68 001:350 JLINK_WriteReg(MSP, 0x20002000)  returns 0x00 (0001ms, 0814ms total)
T1D68 001:351 JLINK_WriteReg(PSP, 0x20002000)  returns 0x00 (0000ms, 0814ms total)
T1D68 001:351 JLINK_WriteReg(CFBP, 0x00000000)  returns 0x00 (0000ms, 0814ms total)
T1D68 001:351 JLINK_SetBPEx(Addr = 0x20000000, Type = 0xFFFFFFF2)  returns 0x00000011 (0000ms, 0814ms total)
T1D68 001:351 JLINK_Go() -- CPU_ReadMem(4 bytes @ 0xE0001000) -- CPU_WriteMem(4 bytes @ 0xE0001000) (0004ms, 0818ms total)
T1D68 001:355 JLINK_IsHalted()  returns FALSE (0001ms, 0819ms total)
T1D68 001:358 JLINK_IsHalted()  returns FALSE (0000ms, 0818ms total)
T1D68 001:365 JLINK_IsHalted()  returns FALSE (0001ms, 0819ms total)
T1D68 001:389 JLINK_IsHalted() -- CPU_ReadMem(2 bytes @ 0x20000000)  returns TRUE (0007ms, 0825ms total)
T1D68 001:396 JLINK_ReadReg(R15 (PC))  returns 0x20000000 (0000ms, 0818ms total)
T1D68 001:396 JLINK_ClrBPEx(BPHandle = 0x00000011)  returns 0x00 (0000ms, 0818ms total)
T1D68 001:396 JLINK_ReadReg(R0)  returns 0x00000000 (0000ms, 0818ms total)
T1D68 001:398 JLINK_WriteReg(R0, 0x0001D000)  returns 0x00 (0000ms, 0818ms total)
T1D68 001:398 JLINK_WriteReg(R1, 0x00000400)  returns 0x00 (0000ms, 0818ms total)
T1D68 001:398 JLINK_WriteReg(R2, 0x000000FF)  returns 0x00 (0000ms, 0818ms total)
T1D68 001:398 JLINK_WriteReg(R3, 0x00000000)  returns 0x00 (0000ms, 0818ms total)
T1D68 001:398 JLINK_WriteReg(R4, 0x00000000)  returns 0x00 (0001ms, 0819ms total)
T1D68 001:399 JLINK_WriteReg(R5, 0x00000000)  returns 0x00 (0000ms, 0819ms total)
T1D68 001:399 JLINK_WriteReg(R6, 0x00000000)  returns 0x00 (0000ms, 0819ms total)
T1D68 001:399 JLINK_WriteReg(R7, 0x00000000)  returns 0x00 (0000ms, 0819ms total)
T1D68 001:399 JLINK_WriteReg(R8, 0x00000000)  returns 0x00 (0000ms, 0819ms total)
T1D68 001:399 JLINK_WriteReg(R9, 0x20000474)  returns 0x00 (0000ms, 0819ms total)
T1D68 001:399 JLINK_WriteReg(R10, 0x00000000)  returns 0x00 (0000ms, 0819ms total)
T1D68 001:399 JLINK_WriteReg(R11, 0x00000000)  returns 0x00 (0000ms, 0819ms total)
T1D68 001:399 JLINK_WriteReg(R12, 0x00000000)  returns 0x00 (0000ms, 0819ms total)
T1D68 001:399 JLINK_WriteReg(R13 (SP), 0x20002000)  returns 0x00 (0000ms, 0819ms total)
T1D68 001:399 JLINK_WriteReg(R14, 0x20000001)  returns 0x00 (0000ms, 0819ms total)
T1D68 001:399 JLINK_WriteReg(R15 (PC), 0x20000188)  returns 0x00 (0000ms, 0819ms total)
T1D68 001:399 JLINK_WriteReg(XPSR, 0x01000000)  returns 0x00 (0000ms, 0819ms total)
T1D68 001:399 JLINK_WriteReg(MSP, 0x20002000)  returns 0x00 (0000ms, 0819ms total)
T1D68 001:399 JLINK_WriteReg(PSP, 0x20002000)  returns 0x00 (0000ms, 0819ms total)
T1D68 001:399 JLINK_WriteReg(CFBP, 0x00000000)  returns 0x00 (0000ms, 0819ms total)
T1D68 001:399 JLINK_SetBPEx(Addr = 0x20000000, Type = 0xFFFFFFF2)  returns 0x00000012 (0000ms, 0819ms total)
T1D68 001:399 JLINK_Go() -- CPU_ReadMem(4 bytes @ 0xE0001000) -- CPU_WriteMem(4 bytes @ 0xE0001000) (0006ms, 0825ms total)
